T083C 000:905.331   SEGGER J-Link V6.86 Log File
T083C 000:905.463   DLL Compiled: Sep 24 2020 17:31:31
T083C 000:905.468   Logging started @ 2022-07-04 09:19
T083C 000:905.472 - 905.474ms
T083C 000:905.484 JLINK_SetWarnOutHandler(...)
T083C 000:905.489 - 0.007ms
T083C 000:905.495 JLINK_OpenEx(...)
T083C 000:906.898   Firmware: J-Link ARM V8 compiled Nov 28 2014 13:44:46
T083C 000:909.078   Hardware: V8.00
T083C 000:909.120   S/N: 4294967295
T083C 000:909.128   OEM: SEGGER
T083C 000:909.134   Feature(s): RDI,FlashDL,FlashBP,JFlash,GDB
T083C 000:910.283   TELNET listener socket opened on port 19021
T083C 000:910.523   WEBSRV Starting webserver
T083C 000:910.980   WEBSRV Webserver running on local port 19080
T083C 000:910.997 - 5.505ms returns "O.K."
T083C 000:911.018 JLINK_GetEmuCaps()
T083C 000:911.025 - 0.008ms returns 0xB9FF7BBF
T083C 000:911.035 JLINK_TIF_GetAvailable(...)
T083C 000:911.205 - 0.178ms
T083C 000:911.220 JLINK_SetErrorOutHandler(...)
T083C 000:911.225 - 0.007ms
T083C 000:911.247 JLINK_ExecCommand("ProjectFile = "C:\Users\lenovo\Desktop\R1_DiPan\MDK-ARM\JLinkSettings.ini"", ...). 
T083C 000:918.366 - 7.127ms returns 0x00
T083C 000:918.400 JLINK_ExecCommand("Device = STM32F407VETx", ...). 
T083C 000:918.694   Device "STM32F407VE" selected.
T083C 000:918.988 - 0.585ms returns 0x00
T083C 000:919.003 JLINK_GetHardwareVersion()
T083C 000:919.008 - 0.007ms returns 80000
T083C 000:919.019 JLINK_GetDLLVersion()
T083C 000:919.024 - 0.006ms returns 68600
T083C 000:919.029 JLINK_GetOEMString(...)
T083C 000:919.035 JLINK_GetFirmwareString(...)
T083C 000:919.039 - 0.006ms
T083C 000:919.056 JLINK_GetDLLVersion()
T083C 000:919.060 - 0.006ms returns 68600
T083C 000:919.066 JLINK_GetCompileDateTime()
T083C 000:919.070 - 0.006ms
T083C 000:919.080 JLINK_GetFirmwareString(...)
T083C 000:919.084 - 0.006ms
T083C 000:919.093 JLINK_GetHardwareVersion()
T083C 000:919.098 - 0.006ms returns 80000
T083C 000:919.107 JLINK_GetSN()
T083C 000:919.112 - 0.007ms returns -1
T083C 000:919.118 JLINK_GetOEMString(...)
T083C 000:919.129 JLINK_TIF_Select(JLINKARM_TIF_JTAG)
T083C 000:919.857 - 0.737ms returns 0x00
T083C 000:919.872 JLINK_HasError()
T083C 000:919.888 JLINK_SetSpeed(5000)
T083C 000:920.059 - 0.177ms
T083C 000:920.071 JLINK_GetIdData(pIdData)
T083C 000:921.219   TotalIRLen = 9, IRPrint = 0x0011
T083C 000:921.675   JTAG chain detection found 2 devices:
T083C 000:921.691    #0 Id: 0x4BA00477, IRLen: 04, CoreSight JTAG-DP
T083C 000:921.702    #1 Id: 0x06413041, IRLen: 05, STM32 Boundary Scan
T083C 000:928.852   TotalIRLen = 9, IRPrint = 0x0011
T083C 000:929.291   JTAG chain detection found 2 devices:
T083C 000:929.304    #0 Id: 0x4BA00477, IRLen: 04, CoreSight JTAG-DP
T083C 000:929.314    #1 Id: 0x06413041, IRLen: 05, STM32 Boundary Scan
T083C 000:931.695   Old FW that does not support reading DPIDR via DAP jobs
T083C 000:934.576   Unknown DP version. Assuming DPv0
T083C 000:934.599   Scanning AP map to find all available APs
T083C 000:937.055   AP[1]: Stopped AP scan as end of AP map has been reached
T083C 000:937.077   AP[0]: AHB-AP (IDR: 0x24770011)
T083C 000:937.088   Iterating through AP map to find AHB-AP to use
T083C 000:941.026   AP[0]: Core found
T083C 000:941.057   AP[0]: AHB-AP ROM base: 0xE00FF000
T083C 000:943.027   CPUID register: 0x410FC241. Implementer code: 0x41 (ARM)
T083C 000:943.048   Found Cortex-M4 r0p1, Little endian.
T083C 000:943.383   -- Max. mem block: 0x00002408
T083C 000:943.410   CPU_ReadMem(4 bytes @ 0xE000EDF0)
T083C 000:947.413   CPU_ReadMem(4 bytes @ 0xE0002000)
T083C 000:947.960   FPUnit: 6 code (BP) slots and 2 literal slots
T083C 000:947.968   CPU_ReadMem(4 bytes @ 0xE000EDFC)
T083C 000:948.345   CPU_WriteMem(4 bytes @ 0xE000EDFC)
T083C 000:948.701   CPU_ReadMem(4 bytes @ 0xE0001000)
T083C 000:949.139   CPU_WriteMem(4 bytes @ 0xE0001000)
T083C 000:949.473   CPU_ReadMem(4 bytes @ 0xE000ED88)
T083C 000:949.863   CPU_WriteMem(4 bytes @ 0xE000ED88)
T083C 000:950.195   CPU_ReadMem(4 bytes @ 0xE000ED88)
T083C 000:950.585   CPU_WriteMem(4 bytes @ 0xE000ED88)
T083C 000:950.974   CoreSight components:
T083C 000:950.990   ROMTbl[0] @ E00FF000
T083C 000:950.998   CPU_ReadMem(64 bytes @ 0xE00FF000)
T083C 000:952.031   CPU_ReadMem(32 bytes @ 0xE000EFE0)
T083C 000:952.754   ROMTbl[0][0]: E000E000, CID: B105E00D, PID: 000BB00C SCS-M7
T083C 000:952.802   CPU_ReadMem(32 bytes @ 0xE0001FE0)
T083C 000:953.505   ROMTbl[0][1]: E0001000, CID: B105E00D, PID: 003BB002 DWT
T083C 000:953.520   CPU_ReadMem(32 bytes @ 0xE0002FE0)
T083C 000:954.201   ROMTbl[0][2]: E0002000, CID: B105E00D, PID: 002BB003 FPB
T083C 000:954.216   CPU_ReadMem(32 bytes @ 0xE0000FE0)
T083C 000:954.848   ROMTbl[0][3]: E0000000, CID: B105E00D, PID: 003BB001 ITM
T083C 000:954.863   CPU_ReadMem(32 bytes @ 0xE0040FE0)
T083C 000:955.433   ROMTbl[0][4]: E0040000, CID: B105900D, PID: 000BB9A1 TPIU
T083C 000:955.446   CPU_ReadMem(32 bytes @ 0xE0041FE0)
T083C 000:956.019   ROMTbl[0][5]: E0041000, CID: B105900D, PID: 000BB925 ETM
T083C 000:956.070   pIdData->ScanLen=9
T083C 000:956.077   
T083C 000:956.111   pIdData->NumDevices=2
T083C 000:956.118   
T083C 000:956.122   pIdData->aId[0]=0x4BA00477
T083C 000:956.128   
T083C 000:956.132   pIdData->aIrRead[0]=0
T083C 000:956.138   
T083C 000:956.143   pIdData->aScanLen[0]=0
T083C 000:956.149   
T083C 000:956.153   pIdData->aScanRead[0]=0
T083C 000:956.159   
T083C 000:956.164 - 36.094ms
T083C 000:956.212 JLINK_JTAG_GetDeviceID(DeviceIndex = 0)
T083C 000:956.222 - 0.011ms returns 1268778103
T083C 000:956.230 JLINK_JTAG_GetDeviceInfo(DeviceIndex = 0)
T083C 000:956.234 - 0.006ms returns 0
T083C 000:956.240 JLINK_JTAG_GetDeviceID(DeviceIndex = 1)
T083C 000:956.244 - 0.006ms returns 104935489
T083C 000:956.250 JLINK_JTAG_GetDeviceInfo(DeviceIndex = 1)
T083C 000:956.254 - 0.006ms returns 0
T083C 000:956.261 JLINK_GetDLLVersion()
T083C 000:956.265 - 0.006ms returns 68600
T083C 000:956.271 JLINK_CORE_GetFound()
T083C 000:956.275 - 0.006ms returns 0xE0000FF
T083C 000:956.281 JLINK_GetDebugInfo(0x100 = JLINKARM_ROM_TABLE_ADDR_INDEX)
T083C 000:956.286   Value=0xE00FF000
T083C 000:956.293 - 0.013ms returns 0
T083C 000:956.305 JLINK_GetDebugInfo(0x100 = JLINKARM_ROM_TABLE_ADDR_INDEX)
T083C 000:956.311   Value=0xE00FF000
T083C 000:956.317 - 0.013ms returns 0
T083C 000:956.322 JLINK_GetDebugInfo(0x101 = JLINKARM_DEBUG_INFO_ETM_ADDR_INDEX)
T083C 000:956.327   Value=0xE0041000
T083C 000:956.333 - 0.012ms returns 0
T083C 000:956.342 JLINK_ReadMemEx(0xE0041FD0, 0x20 Bytes, Flags = 0x02000004)
T083C 000:956.369   CPU_ReadMem(32 bytes @ 0xE0041FD0)
T083C 000:956.941   Data:  04 00 00 00 00 00 00 00 00 00 00 00 00 00 00 00 ...
T083C 000:956.953 - 0.613ms returns 32 (0x20)
T083C 000:956.961 JLINK_GetDebugInfo(0x102 = JLINKARM_DEBUG_INFO_MTB_ADDR_INDEX)
T083C 000:956.966   Value=0x00000000
T083C 000:956.972 - 0.013ms returns 0
T083C 000:956.978 JLINK_GetDebugInfo(0x103 = JLINKARM_DEBUG_INFO_TPIU_ADDR_INDEX)
T083C 000:956.983   Value=0xE0040000
T083C 000:956.989 - 0.013ms returns 0
T083C 000:956.994 JLINK_GetDebugInfo(0x104 = JLINKARM_DEBUG_INFO_ITM_ADDR_INDEX)
T083C 000:956.999   Value=0xE0000000
T083C 000:957.005 - 0.012ms returns 0
T083C 000:957.010 JLINK_GetDebugInfo(0x105 = JLINKARM_DEBUG_INFO_DWT_ADDR_INDEX)
T083C 000:957.015   Value=0xE0001000
T083C 000:957.021 - 0.012ms returns 0
T083C 000:957.026 JLINK_GetDebugInfo(0x106 = JLINKARM_DEBUG_INFO_FPB_ADDR_INDEX)
T083C 000:957.031   Value=0xE0002000
T083C 000:957.037 - 0.013ms returns 0
T083C 000:957.043 JLINK_GetDebugInfo(0x107 = JLINKARM_DEBUG_INFO_NVIC_ADDR_INDEX)
T083C 000:957.047   Value=0xE000E000
T083C 000:957.053 - 0.012ms returns 0
T083C 000:957.059 JLINK_GetDebugInfo(0x10C = JLINKARM_DEBUG_INFO_DBG_ADDR_INDEX)
T083C 000:957.063   Value=0xE000EDF0
T083C 000:957.069 - 0.013ms returns 0
T083C 000:957.075 JLINK_GetDebugInfo(0x01 = Unknown)
T083C 000:957.079   Value=0x00000001
T083C 000:957.086 - 0.013ms returns 0
T083C 000:957.091 JLINK_ReadMemU32(0xE000ED00, 0x1 Items)
T083C 000:957.100   CPU_ReadMem(4 bytes @ 0xE000ED00)
T083C 000:957.496   Data:  41 C2 0F 41
T083C 000:957.515   Debug reg: CPUID
T083C 000:957.522 - 0.432ms returns 1 (0x1)
T083C 000:957.529 JLINK_GetDebugInfo(0x10F = JLINKARM_DEBUG_INFO_HAS_CORTEX_M_SECURITY_EXT_INDEX)
T083C 000:957.535   Value=0x00000000
T083C 000:957.541 - 0.014ms returns 0
T083C 000:957.547 JLINK_HasError()
T083C 000:957.553 JLINK_SetResetType(JLINKARM_CM3_RESET_TYPE_NORMAL)
T083C 000:957.558 - 0.007ms returns JLINKARM_CM3_RESET_TYPE_NORMAL
T083C 000:957.564 JLINK_Reset()
T083C 000:957.588   CPU is running
T083C 000:957.596   CPU_WriteMem(4 bytes @ 0xE000EDF0)
T083C 000:958.005   CPU is running
T083C 000:958.013   CPU_WriteMem(4 bytes @ 0xE000EDFC)
T083C 000:958.369   Reset: Halt core after reset via DEMCR.VC_CORERESET.
T083C 000:958.390   Reset: Reset device via AIRCR.SYSRESETREQ.
T083C 000:958.398   CPU is running
T083C 000:958.405   CPU_WriteMem(4 bytes @ 0xE000ED0C)
T083C 001:009.153   CPU_ReadMem(4 bytes @ 0xE000EDF0)
T083C 001:009.592   CPU_ReadMem(4 bytes @ 0xE000EDF0)
T083C 001:009.989   CPU is running
T083C 001:010.000   CPU_WriteMem(4 bytes @ 0xE000EDF0)
T083C 001:010.338   CPU is running
T083C 001:010.351   CPU_WriteMem(4 bytes @ 0xE000EDFC)
T083C 001:016.093   CPU_ReadMem(4 bytes @ 0xE000EDF0)
T083C 001:019.290   CPU_WriteMem(4 bytes @ 0xE000EDFC)
T083C 001:019.621   CPU_WriteMem(4 bytes @ 0xE0001028)
T083C 001:020.014   CPU_WriteMem(4 bytes @ 0xE0001038)
T083C 001:020.361   CPU_WriteMem(4 bytes @ 0xE0001048)
T083C 001:020.810   CPU_WriteMem(4 bytes @ 0xE0001058)
T083C 001:021.199   CPU_WriteMem(4 bytes @ 0xE0002000)
T083C 001:021.534   CPU_ReadMem(4 bytes @ 0xE000EDFC)
T083C 001:021.916   CPU_ReadMem(4 bytes @ 0xE0001000)
T083C 001:022.316 - 64.760ms
T083C 001:022.335 JLINK_HasError()
T083C 001:022.342 JLINK_ReadReg(R15 (PC))
T083C 001:022.355 - 0.015ms returns 0x080001A0
T083C 001:022.362 JLINK_ReadReg(XPSR)
T083C 001:022.367 - 0.007ms returns 0x01000000
T083C 001:022.374 JLINK_Halt()
T083C 001:022.379 - 0.006ms returns 0x00
T083C 001:022.385 JLINK_ReadMemU32(0xE000EDF0, 0x1 Items)
T083C 001:022.395   CPU_ReadMem(4 bytes @ 0xE000EDF0)
T083C 001:022.830   Data:  03 00 03 00
T083C 001:022.841   Debug reg: DHCSR
T083C 001:022.847 - 0.463ms returns 1 (0x1)
T083C 001:022.855 JLINK_WriteU32_64(0xE000EDF0, 0xA05F0003)
T083C 001:022.860   Debug reg: DHCSR
T083C 001:022.884   CPU_WriteMem(4 bytes @ 0xE000EDF0)
T083C 001:023.206 - 0.358ms returns 0 (0x00000000)
T083C 001:023.221 JLINK_WriteU32_64(0xE000EDFC, 0x01000000)
T083C 001:023.227   Debug reg: DEMCR
T083C 001:023.237   CPU_WriteMem(4 bytes @ 0xE000EDFC)
T083C 001:023.583 - 0.366ms returns 0 (0x00000000)
T083C 001:023.629 JLINK_GetHWStatus(...)
T083C 001:023.812 - 0.188ms returns 0
T083C 001:023.842 JLINK_GetNumBPUnits(Type = 0xFFFFFF00)
T083C 001:023.848 - 0.008ms returns 0x06
T083C 001:023.853 JLINK_GetNumBPUnits(Type = 0xF0)
T083C 001:023.858 - 0.006ms returns 0x2000
T083C 001:023.863 JLINK_GetNumWPUnits()
T083C 001:023.867 - 0.006ms returns 4
T083C 001:023.880 JLINK_GetSpeed()
T083C 001:023.885 - 0.006ms returns 4800
T083C 001:023.895 JLINK_ReadMemU32(0xE000E004, 0x1 Items)
T083C 001:023.904   CPU_ReadMem(4 bytes @ 0xE000E004)
T083C 001:024.291   Data:  02 00 00 00
T083C 001:024.305 - 0.412ms returns 1 (0x1)
T083C 001:024.315 JLINK_ReadMemU32(0xE000E004, 0x1 Items)
T083C 001:024.325   CPU_ReadMem(4 bytes @ 0xE000E004)
T083C 001:024.813   Data:  02 00 00 00
T083C 001:024.823 - 0.510ms returns 1 (0x1)
T083C 001:024.831 JLINK_WriteMemEx(0xE0001000, 0x0000001C Bytes, Flags = 0x02000004)
T083C 001:024.836   Data:  01 00 00 00 00 00 00 00 00 00 00 00 00 00 00 00 ...
T083C 001:025.264   CPU_WriteMem(28 bytes @ 0xE0001000)
T083C 001:025.811 - 0.986ms returns 0x1C
T083C 001:025.824 JLINK_HasError()
T083C 001:025.830 JLINK_ReadReg(R15 (PC))
T083C 001:025.837 - 0.009ms returns 0x080001A0
T083C 001:025.843 JLINK_ReadReg(XPSR)
T083C 001:025.848 - 0.006ms returns 0x01000000
T083C 001:033.711 JLINK_ReadMemEx(0xE0001004, 0x4 Bytes, Flags = 0x02000000)
T083C 001:033.734   Data:  00 00 00 00
T083C 001:033.741   Debug reg: DWT_CYCCNT
T083C 001:033.752 - 0.043ms returns 4 (0x4)
T083C 001:130.569 JLINK_HasError()
T083C 001:130.592 JLINK_SetResetType(JLINKARM_CM3_RESET_TYPE_NORMAL)
T083C 001:130.598 - 0.008ms returns JLINKARM_CM3_RESET_TYPE_NORMAL
T083C 001:130.604 JLINK_Reset()
T083C 001:130.617   CPU_WriteMem(4 bytes @ 0xE000EDF0)
T083C 001:130.962   CPU_WriteMem(4 bytes @ 0xE000EDFC)
T083C 001:131.307   Reset: Halt core after reset via DEMCR.VC_CORERESET.
T083C 001:131.320   Reset: Reset device via AIRCR.SYSRESETREQ.
T083C 001:131.328   CPU_WriteMem(4 bytes @ 0xE000ED0C)
T083C 001:182.682   CPU_ReadMem(4 bytes @ 0xE000EDF0)
T083C 001:183.252   CPU_ReadMem(4 bytes @ 0xE000EDF0)
T083C 001:183.673   CPU_WriteMem(4 bytes @ 0xE000EDF0)
T083C 001:184.082   CPU_WriteMem(4 bytes @ 0xE000EDFC)
T083C 001:189.642   CPU_ReadMem(4 bytes @ 0xE000EDF0)
T083C 001:192.843   CPU_WriteMem(4 bytes @ 0xE000EDFC)
T083C 001:193.259   CPU_WriteMem(4 bytes @ 0xE0001028)
T083C 001:193.595   CPU_WriteMem(4 bytes @ 0xE0001038)
T083C 001:193.986   CPU_WriteMem(4 bytes @ 0xE0001048)
T083C 001:194.320   CPU_WriteMem(4 bytes @ 0xE0001058)
T083C 001:194.677   CPU_WriteMem(4 bytes @ 0xE0002000)
T083C 001:195.010   CPU_ReadMem(4 bytes @ 0xE000EDFC)
T083C 001:195.393   CPU_ReadMem(4 bytes @ 0xE0001000)
T083C 001:195.811 - 65.212ms
T083C 001:195.852 JLINK_HasError()
T083C 001:195.859 JLINK_ReadReg(R15 (PC))
T083C 001:195.867 - 0.010ms returns 0x080001A0
T083C 001:195.873 JLINK_ReadReg(XPSR)
T083C 001:195.878 - 0.006ms returns 0x01000000
T083C 001:196.180 JLINK_ReadMemEx(0x080001A0, 0x3C Bytes, Flags = 0x02000000)
T083C 001:196.193   CPU_ReadMem(128 bytes @ 0x08000180)
T083C 001:197.598    -- Updating C cache (128 bytes @ 0x08000180)
T083C 001:197.654    -- Read from C cache (60 bytes @ 0x080001A0)
T083C 001:197.708   Data:  06 48 80 47 06 48 00 47 FE E7 FE E7 FE E7 FE E7 ...
T083C 001:197.716 - 1.539ms returns 60 (0x3C)
T083C 001:197.726 JLINK_ReadMemEx(0x080001A0, 0x2 Bytes, Flags = 0x02000000)
T083C 001:197.732    -- Read from C cache (2 bytes @ 0x080001A0)
T083C 001:197.738   Data:  06 48
T083C 001:197.745 - 0.021ms returns 2 (0x2)
T083C 001:197.797 JLINK_ReadMemEx(0x080001A2, 0x2 Bytes, Flags = 0x02000000)
T083C 001:197.803    -- Read from C cache (2 bytes @ 0x080001A2)
T083C 001:197.809   Data:  80 47
T083C 001:197.816 - 0.020ms returns 2 (0x2)
T083C 002:327.078 JLINK_ReadMemEx(0x080001A2, 0x2 Bytes, Flags = 0x02000000)
T083C 002:327.108    -- Read from C cache (2 bytes @ 0x080001A2)
T083C 002:327.116   Data:  80 47
T083C 002:327.124 - 0.048ms returns 2 (0x2)
T083C 002:327.131 JLINK_ReadMemEx(0x080001A4, 0x3C Bytes, Flags = 0x02000000)
T083C 002:327.137    -- Read from C cache (60 bytes @ 0x080001A4)
T083C 002:327.145   Data:  06 48 00 47 FE E7 FE E7 FE E7 FE E7 FE E7 FE E7 ...
T083C 002:327.153 - 0.024ms returns 60 (0x3C)
T083C 002:327.159 JLINK_ReadMemEx(0x080001A4, 0x2 Bytes, Flags = 0x02000000)
T083C 002:327.165    -- Read from C cache (2 bytes @ 0x080001A4)
T083C 002:327.172   Data:  06 48
T083C 002:327.180 - 0.023ms returns 2 (0x2)
T083C 002:750.555 JLINK_HasError()
T083C 002:750.579 JLINK_ReadReg(R0)
T083C 002:750.915 - 0.344ms returns 0x00000000
T083C 002:750.930 JLINK_ReadReg(R1)
T083C 002:750.937 - 0.009ms returns 0x00000000
T083C 002:750.943 JLINK_ReadReg(R2)
T083C 002:750.948 - 0.007ms returns 0x00000000
T083C 002:750.955 JLINK_ReadReg(R3)
T083C 002:750.960 - 0.007ms returns 0x00000000
T083C 002:750.966 JLINK_ReadReg(R4)
T083C 002:750.971 - 0.007ms returns 0x00000000
T083C 002:750.977 JLINK_ReadReg(R5)
T083C 002:750.982 - 0.007ms returns 0x00000000
T083C 002:750.989 JLINK_ReadReg(R6)
T083C 002:750.994 - 0.007ms returns 0x00000000
T083C 002:751.000 JLINK_ReadReg(R7)
T083C 002:751.005 - 0.007ms returns 0x00000000
T083C 002:751.011 JLINK_ReadReg(R8)
T083C 002:751.029 - 0.019ms returns 0x00000000
T083C 002:751.035 JLINK_ReadReg(R9)
T083C 002:751.040 - 0.007ms returns 0x00000000
T083C 002:751.046 JLINK_ReadReg(R10)
T083C 002:751.052 - 0.007ms returns 0x00000000
T083C 002:751.106 JLINK_ReadReg(R11)
T083C 002:751.115 - 0.011ms returns 0x00000000
T083C 002:751.122 JLINK_ReadReg(R12)
T083C 002:751.127 - 0.007ms returns 0x00000000
T083C 002:751.133 JLINK_ReadReg(R13 (SP))
T083C 002:751.139 - 0.008ms returns 0x20000BF8
T083C 002:751.145 JLINK_ReadReg(R14)
T083C 002:751.150 - 0.007ms returns 0xFFFFFFFF
T083C 002:751.156 JLINK_ReadReg(R15 (PC))
T083C 002:751.162 - 0.008ms returns 0x080001A0
T083C 002:751.168 JLINK_ReadReg(XPSR)
T083C 002:751.173 - 0.007ms returns 0x01000000
T083C 002:751.179 JLINK_ReadReg(MSP)
T083C 002:751.185 - 0.007ms returns 0x20000BF8
T083C 002:751.191 JLINK_ReadReg(PSP)
T083C 002:751.196 - 0.007ms returns 0x00000000
T083C 002:751.202 JLINK_ReadReg(CFBP)
T083C 002:751.207 - 0.007ms returns 0x00000000
T083C 002:751.214 JLINK_ReadReg(FPSCR)
T083C 002:755.456 - 4.267ms returns 0x00000000
T083C 002:755.490 JLINK_ReadReg(FPS0)
T083C 002:755.502 - 0.014ms returns 0x00000000
T083C 002:755.508 JLINK_ReadReg(FPS1)
T083C 002:755.514 - 0.008ms returns 0x00000000
T083C 002:755.520 JLINK_ReadReg(FPS2)
T083C 002:755.525 - 0.007ms returns 0x00000000
T083C 002:755.532 JLINK_ReadReg(FPS3)
T083C 002:755.537 - 0.007ms returns 0x00000000
T083C 002:755.543 JLINK_ReadReg(FPS4)
T083C 002:755.548 - 0.007ms returns 0x00000000
T083C 002:755.554 JLINK_ReadReg(FPS5)
T083C 002:755.560 - 0.007ms returns 0x00000000
T083C 002:755.566 JLINK_ReadReg(FPS6)
T083C 002:755.571 - 0.007ms returns 0x00000000
T083C 002:755.577 JLINK_ReadReg(FPS7)
T083C 002:755.582 - 0.007ms returns 0x00000000
T083C 002:755.589 JLINK_ReadReg(FPS8)
T083C 002:755.594 - 0.007ms returns 0x00000000
T083C 002:755.600 JLINK_ReadReg(FPS9)
T083C 002:755.605 - 0.007ms returns 0x00000000
T083C 002:755.611 JLINK_ReadReg(FPS10)
T083C 002:755.616 - 0.007ms returns 0x00000000
T083C 002:755.622 JLINK_ReadReg(FPS11)
T083C 002:755.628 - 0.007ms returns 0x00000000
T083C 002:755.634 JLINK_ReadReg(FPS12)
T083C 002:755.639 - 0.007ms returns 0x00000000
T083C 002:755.645 JLINK_ReadReg(FPS13)
T083C 002:755.650 - 0.007ms returns 0x00000000
T083C 002:755.657 JLINK_ReadReg(FPS14)
T083C 002:755.662 - 0.007ms returns 0x00000000
T083C 002:755.668 JLINK_ReadReg(FPS15)
T083C 002:755.673 - 0.007ms returns 0x00000000
T083C 002:755.679 JLINK_ReadReg(FPS16)
T083C 002:755.684 - 0.007ms returns 0x00000000
T083C 002:755.690 JLINK_ReadReg(FPS17)
T083C 002:755.695 - 0.007ms returns 0x00000000
T083C 002:755.701 JLINK_ReadReg(FPS18)
T083C 002:755.707 - 0.007ms returns 0x00000000
T083C 002:755.713 JLINK_ReadReg(FPS19)
T083C 002:755.718 - 0.007ms returns 0x00000000
T083C 002:755.724 JLINK_ReadReg(FPS20)
T083C 002:755.730 - 0.007ms returns 0x00000000
T083C 002:755.736 JLINK_ReadReg(FPS21)
T083C 002:755.741 - 0.007ms returns 0x00000000
T083C 002:755.747 JLINK_ReadReg(FPS22)
T083C 002:755.752 - 0.007ms returns 0x00000000
T083C 002:755.759 JLINK_ReadReg(FPS23)
T083C 002:755.764 - 0.007ms returns 0x00000000
T083C 002:755.770 JLINK_ReadReg(FPS24)
T083C 002:755.775 - 0.007ms returns 0x00000000
T083C 002:755.781 JLINK_ReadReg(FPS25)
T083C 002:755.786 - 0.007ms returns 0x00000000
T083C 002:755.793 JLINK_ReadReg(FPS26)
T083C 002:755.798 - 0.007ms returns 0x00000000
T083C 002:755.804 JLINK_ReadReg(FPS27)
T083C 002:755.809 - 0.007ms returns 0x00000000
T083C 002:755.815 JLINK_ReadReg(FPS28)
T083C 002:755.820 - 0.007ms returns 0x00000000
T083C 002:755.826 JLINK_ReadReg(FPS29)
T083C 002:755.831 - 0.007ms returns 0x00000000
T083C 002:755.838 JLINK_ReadReg(FPS30)
T083C 002:755.843 - 0.007ms returns 0x00000000
T083C 002:755.849 JLINK_ReadReg(FPS31)
T083C 002:755.854 - 0.007ms returns 0x00000000
T083C 002:755.868 JLINK_ReadMemEx(0x20000004, 0x4 Bytes, Flags = 0x02000000)
T083C 002:755.882   CPU_ReadMem(64 bytes @ 0x20000000)
T083C 002:756.892    -- Updating C cache (64 bytes @ 0x20000000)
T083C 002:756.909    -- Read from C cache (4 bytes @ 0x20000004)
T083C 002:756.917   Data:  0D 78 2D 06
T083C 002:756.925 - 1.059ms returns 4 (0x4)
T083C 002:765.061 JLINK_ReadMemEx(0x20000004, 0x4 Bytes, Flags = 0x02000000)
T083C 002:765.092    -- Read from C cache (4 bytes @ 0x20000004)
T083C 002:765.103   Data:  0D 78 2D 06
T083C 002:765.111 - 0.052ms returns 4 (0x4)
T083C 002:765.142 JLINK_ReadMemEx(0x20000004, 0x4 Bytes, Flags = 0x02000000)
T083C 002:765.150    -- Read from C cache (4 bytes @ 0x20000004)
T083C 002:765.158   Data:  0D 78 2D 06
T083C 002:765.165 - 0.025ms returns 4 (0x4)
T083C 002:773.601 JLINK_ReadMemEx(0x20000008, 0x8 Bytes, Flags = 0x02000000)
T083C 002:773.642    -- Read from C cache (8 bytes @ 0x20000008)
T083C 002:773.650   Data:  68 40 08 24 40 00 00 D3
T083C 002:773.657 - 0.058ms returns 8 (0x8)
T083C 002:773.914 JLINK_ReadMemEx(0x20000008, 0x8 Bytes, Flags = 0x02000000)
T083C 002:773.924    -- Read from C cache (8 bytes @ 0x20000008)
T083C 002:773.932   Data:  68 40 08 24 40 00 00 D3
T083C 002:773.939 - 0.027ms returns 8 (0x8)
T083C 002:773.964 JLINK_ReadMemEx(0x20000008, 0x8 Bytes, Flags = 0x02000000)
T083C 002:773.972    -- Read from C cache (8 bytes @ 0x20000008)
T083C 002:773.979   Data:  68 40 08 24 40 00 00 D3
T083C 002:773.986 - 0.024ms returns 8 (0x8)
T083C 002:780.398 JLINK_ReadMemEx(0x20000010, 0x8 Bytes, Flags = 0x02000000)
T083C 002:780.426    -- Read from C cache (8 bytes @ 0x20000010)
T083C 002:780.434   Data:  58 40 64 1E FA D1 49 1C
T083C 002:780.441 - 0.046ms returns 8 (0x8)
T083C 002:780.659 JLINK_ReadMemEx(0x20000010, 0x8 Bytes, Flags = 0x02000000)
T083C 002:780.670    -- Read from C cache (8 bytes @ 0x20000010)
T083C 002:780.678   Data:  58 40 64 1E FA D1 49 1C
T083C 002:780.684 - 0.027ms returns 8 (0x8)
T083C 002:780.706 JLINK_ReadMemEx(0x20000010, 0x8 Bytes, Flags = 0x02000000)
T083C 002:780.713    -- Read from C cache (8 bytes @ 0x20000010)
T083C 002:780.720   Data:  58 40 64 1E FA D1 49 1C
T083C 002:780.727 - 0.024ms returns 8 (0x8)
T083C 002:784.794 JLINK_ReadMemEx(0x20000018, 0x8 Bytes, Flags = 0x02000000)
T083C 002:784.812    -- Read from C cache (8 bytes @ 0x20000018)
T083C 002:784.820   Data:  52 1E 00 2A F2 D1 70 47
T083C 002:784.827 - 0.035ms returns 8 (0x8)
T083C 002:785.037 JLINK_ReadMemEx(0x20000018, 0x8 Bytes, Flags = 0x02000000)
T083C 002:785.045    -- Read from C cache (8 bytes @ 0x20000018)
T083C 002:785.053   Data:  52 1E 00 2A F2 D1 70 47
T083C 002:785.060 - 0.025ms returns 8 (0x8)
T083C 002:785.077 JLINK_ReadMemEx(0x20000018, 0x8 Bytes, Flags = 0x02000000)
T083C 002:785.085    -- Read from C cache (8 bytes @ 0x20000018)
T083C 002:785.092   Data:  52 1E 00 2A F2 D1 70 47
T083C 002:785.099 - 0.024ms returns 8 (0x8)
T3D14 002:831.899 JLINK_ReadMemEx(0x080001A0, 0x2 Bytes, Flags = 0x02000000)
T3D14 002:831.925    -- Read from C cache (2 bytes @ 0x080001A0)
T3D14 002:831.933   Data:  06 48
T3D14 002:831.941 - 0.045ms returns 2 (0x2)
T3D14 002:831.949 JLINK_HasError()
T3D14 002:831.958 JLINK_SetBPEx(Addr = 0x080048A4, Type = 0xFFFFFFF2)
T3D14 002:831.968 - 0.012ms returns 0x00000001
T3D14 002:831.974 JLINK_HasError()
T3D14 002:831.981 JLINK_HasError()
T3D14 002:831.987 JLINK_Go()
T3D14 002:832.022   CPU_ReadMem(4 bytes @ 0xE0001000)
T3D14 002:832.460   CPU_WriteMem(4 bytes @ 0xE0002008)
T3D14 002:832.472   CPU_WriteMem(4 bytes @ 0xE000200C)
T3D14 002:832.480   CPU_WriteMem(4 bytes @ 0xE0002010)
T3D14 002:832.488   CPU_WriteMem(4 bytes @ 0xE0002014)
T3D14 002:832.496   CPU_WriteMem(4 bytes @ 0xE0002018)
T3D14 002:832.503   CPU_WriteMem(4 bytes @ 0xE000201C)
T3D14 002:834.272   CPU_WriteMem(4 bytes @ 0xE0001004)
T3D14 002:834.961 - 2.981ms
T3D14 002:935.763 JLINK_HasError()
T3D14 002:935.781 JLINK_IsHalted()
T3D14 002:938.529 - 2.765ms returns TRUE
T3D14 002:938.556 JLINK_HasError()
T3D14 002:938.564 JLINK_Halt()
T3D14 002:938.570 - 0.008ms returns 0x00
T3D14 002:938.576 JLINK_IsHalted()
T3D14 002:938.581 - 0.008ms returns TRUE
T3D14 002:938.588 JLINK_IsHalted()
T3D14 002:938.593 - 0.007ms returns TRUE
T3D14 002:938.600 JLINK_IsHalted()
T3D14 002:938.605 - 0.008ms returns TRUE
T3D14 002:938.613 JLINK_HasError()
T3D14 002:938.620 JLINK_ReadReg(R15 (PC))
T3D14 002:938.629 - 0.012ms returns 0x080048A4
T3D14 002:938.642 JLINK_ReadReg(XPSR)
T3D14 002:938.651 - 0.012ms returns 0x61000000
T3D14 002:938.664 JLINK_HasError()
T3D14 002:938.671 JLINK_ClrBPEx(BPHandle = 0x00000001)
T3D14 002:938.678 - 0.009ms returns 0x00
T3D14 002:938.685 JLINK_HasError()
T3D14 002:938.691 JLINK_HasError()
T3D14 002:938.698 JLINK_ReadMemU32(0xE000ED30, 0x1 Items)
T3D14 002:938.711   CPU_ReadMem(4 bytes @ 0xE000ED30)
T3D14 002:939.148   Data:  03 00 00 00
T3D14 002:939.165 - 0.470ms returns 1 (0x1)
T3D14 002:939.175 JLINK_ReadMemU32(0xE0001028, 0x1 Items)
T3D14 002:939.187   CPU_ReadMem(4 bytes @ 0xE0001028)
T3D14 002:939.588   Data:  00 00 00 00
T3D14 002:939.602   Debug reg: DWT_FUNC[0]
T3D14 002:939.609 - 0.436ms returns 1 (0x1)
T3D14 002:939.619 JLINK_ReadMemU32(0xE0001038, 0x1 Items)
T3D14 002:939.629   CPU_ReadMem(4 bytes @ 0xE0001038)
T3D14 002:940.014   Data:  00 02 00 00
T3D14 002:940.026   Debug reg: DWT_FUNC[1]
T3D14 002:940.034 - 0.418ms returns 1 (0x1)
T3D14 002:940.043 JLINK_ReadMemU32(0xE0001048, 0x1 Items)
T3D14 002:940.052   CPU_ReadMem(4 bytes @ 0xE0001048)
T3D14 002:940.450   Data:  00 00 00 00
T3D14 002:940.461   Debug reg: DWT_FUNC[2]
T3D14 002:940.469 - 0.428ms returns 1 (0x1)
T3D14 002:940.477 JLINK_ReadMemU32(0xE0001058, 0x1 Items)
T3D14 002:940.485   CPU_ReadMem(4 bytes @ 0xE0001058)
T3D14 002:940.887   Data:  00 00 00 00
T3D14 002:940.899   Debug reg: DWT_FUNC[3]
T3D14 002:940.907 - 0.432ms returns 1 (0x1)
T3D14 002:940.954 JLINK_HasError()
T3D14 002:940.963 JLINK_ReadReg(R0)
T3D14 002:940.971 - 0.010ms returns 0x080048A5
T3D14 002:940.978 JLINK_ReadReg(R1)
T3D14 002:940.984 - 0.009ms returns 0x20000BF8
T3D14 002:940.991 JLINK_ReadReg(R2)
T3D14 002:940.997 - 0.008ms returns 0x00000000
T3D14 002:941.003 JLINK_ReadReg(R3)
T3D14 002:941.009 - 0.008ms returns 0x08004801
T3D14 002:941.016 JLINK_ReadReg(R4)
T3D14 002:941.021 - 0.008ms returns 0x08004D28
T3D14 002:941.028 JLINK_ReadReg(R5)
T3D14 002:941.033 - 0.008ms returns 0x08004D28
T3D14 002:941.040 JLINK_ReadReg(R6)
T3D14 002:941.046 - 0.008ms returns 0x00000000
T3D14 002:941.052 JLINK_ReadReg(R7)
T3D14 002:941.058 - 0.008ms returns 0x00000000
T3D14 002:941.064 JLINK_ReadReg(R8)
T3D14 002:941.070 - 0.008ms returns 0x00000000
T3D14 002:941.077 JLINK_ReadReg(R9)
T3D14 002:941.082 - 0.008ms returns 0x00000000
T3D14 002:941.089 JLINK_ReadReg(R10)
T3D14 002:941.095 - 0.008ms returns 0x00000000
T3D14 002:941.101 JLINK_ReadReg(R11)
T3D14 002:941.107 - 0.008ms returns 0x00000000
T3D14 002:941.113 JLINK_ReadReg(R12)
T3D14 002:941.119 - 0.008ms returns 0x00000000
T3D14 002:941.128 JLINK_ReadReg(R13 (SP))
T3D14 002:941.134 - 0.008ms returns 0x20000BF8
T3D14 002:941.140 JLINK_ReadReg(R14)
T3D14 002:941.146 - 0.008ms returns 0x080008A5
T3D14 002:941.153 JLINK_ReadReg(R15 (PC))
T3D14 002:941.158 - 0.008ms returns 0x080048A4
T3D14 002:941.165 JLINK_ReadReg(XPSR)
T3D14 002:941.171 - 0.008ms returns 0x61000000
T3D14 002:941.177 JLINK_ReadReg(MSP)
T3D14 002:941.183 - 0.008ms returns 0x20000BF8
T3D14 002:941.189 JLINK_ReadReg(PSP)
T3D14 002:941.195 - 0.008ms returns 0x00000000
T3D14 002:941.202 JLINK_ReadReg(CFBP)
T3D14 002:941.207 - 0.008ms returns 0x00000000
T3D14 002:941.214 JLINK_ReadReg(FPSCR)
T3D14 002:945.426 - 4.223ms returns 0x00000000
T3D14 002:945.445 JLINK_ReadReg(FPS0)
T3D14 002:945.453 - 0.011ms returns 0x00000000
T3D14 002:945.460 JLINK_ReadReg(FPS1)
T3D14 002:945.466 - 0.008ms returns 0x00000000
T3D14 002:945.472 JLINK_ReadReg(FPS2)
T3D14 002:945.478 - 0.008ms returns 0x00000000
T3D14 002:945.484 JLINK_ReadReg(FPS3)
T3D14 002:945.490 - 0.008ms returns 0x00000000
T3D14 002:945.496 JLINK_ReadReg(FPS4)
T3D14 002:945.502 - 0.008ms returns 0x00000000
T3D14 002:945.508 JLINK_ReadReg(FPS5)
T3D14 002:945.514 - 0.008ms returns 0x00000000
T3D14 002:945.521 JLINK_ReadReg(FPS6)
T3D14 002:945.526 - 0.008ms returns 0x00000000
T3D14 002:945.533 JLINK_ReadReg(FPS7)
T3D14 002:945.538 - 0.009ms returns 0x00000000
T3D14 002:945.546 JLINK_ReadReg(FPS8)
T3D14 002:945.552 - 0.008ms returns 0x00000000
T3D14 002:945.562 JLINK_ReadReg(FPS9)
T3D14 002:945.570 - 0.010ms returns 0x00000000
T3D14 002:945.577 JLINK_ReadReg(FPS10)
T3D14 002:945.582 - 0.008ms returns 0x00000000
T3D14 002:945.592 JLINK_ReadReg(FPS11)
T3D14 002:945.597 - 0.008ms returns 0x00000000
T3D14 002:945.604 JLINK_ReadReg(FPS12)
T3D14 002:945.610 - 0.008ms returns 0x00000000
T3D14 002:945.616 JLINK_ReadReg(FPS13)
T3D14 002:945.622 - 0.008ms returns 0x00000000
T3D14 002:945.628 JLINK_ReadReg(FPS14)
T3D14 002:945.634 - 0.008ms returns 0x00000000
T3D14 002:945.640 JLINK_ReadReg(FPS15)
T3D14 002:945.646 - 0.008ms returns 0x00000000
T3D14 002:945.652 JLINK_ReadReg(FPS16)
T3D14 002:945.658 - 0.008ms returns 0x00000000
T3D14 002:945.665 JLINK_ReadReg(FPS17)
T3D14 002:945.670 - 0.008ms returns 0x00000000
T3D14 002:945.677 JLINK_ReadReg(FPS18)
T3D14 002:945.682 - 0.008ms returns 0x00000000
T3D14 002:945.689 JLINK_ReadReg(FPS19)
T3D14 002:945.694 - 0.008ms returns 0x00000000
T3D14 002:945.703 JLINK_ReadReg(FPS20)
T3D14 002:945.712 - 0.012ms returns 0x00000000
T3D14 002:945.719 JLINK_ReadReg(FPS21)
T3D14 002:945.725 - 0.008ms returns 0x00000000
T3D14 002:945.732 JLINK_ReadReg(FPS22)
T3D14 002:945.737 - 0.008ms returns 0x00000000
T3D14 002:945.744 JLINK_ReadReg(FPS23)
T3D14 002:945.750 - 0.008ms returns 0x00000000
T3D14 002:945.756 JLINK_ReadReg(FPS24)
T3D14 002:945.762 - 0.008ms returns 0x00000000
T3D14 002:945.768 JLINK_ReadReg(FPS25)
T3D14 002:945.774 - 0.008ms returns 0x00000000
T3D14 002:945.780 JLINK_ReadReg(FPS26)
T3D14 002:945.786 - 0.008ms returns 0x00000000
T3D14 002:945.793 JLINK_ReadReg(FPS27)
T3D14 002:945.798 - 0.008ms returns 0x00000000
T3D14 002:945.805 JLINK_ReadReg(FPS28)
T3D14 002:945.810 - 0.008ms returns 0x00000000
T3D14 002:945.817 JLINK_ReadReg(FPS29)
T3D14 002:945.822 - 0.008ms returns 0x00000000
T3D14 002:945.829 JLINK_ReadReg(FPS30)
T3D14 002:945.834 - 0.008ms returns 0x00000000
T3D14 002:945.841 JLINK_ReadReg(FPS31)
T3D14 002:945.847 - 0.008ms returns 0x00000000
T083C 002:947.733 JLINK_HasError()
T083C 002:947.748 JLINK_ReadMemU32(0xE0001004, 0x1 Items)
T083C 002:947.761   CPU_ReadMem(4 bytes @ 0xE0001004)
T083C 002:948.162   Data:  75 12 00 00
T083C 002:948.175   Debug reg: DWT_CYCCNT
T083C 002:948.183 - 0.437ms returns 1 (0x1)
T083C 002:948.311 JLINK_ReadMemEx(0x20000004, 0x4 Bytes, Flags = 0x02000000)
T083C 002:948.325   CPU_ReadMem(64 bytes @ 0x20000000)
T083C 002:949.271    -- Updating C cache (64 bytes @ 0x20000000)
T083C 002:949.285    -- Read from C cache (4 bytes @ 0x20000004)
T083C 002:949.294   Data:  00 00 00 00
T083C 002:949.302 - 0.992ms returns 4 (0x4)
T083C 002:950.158 JLINK_ReadMemEx(0x20000008, 0x8 Bytes, Flags = 0x02000000)
T083C 002:950.173    -- Read from C cache (8 bytes @ 0x20000008)
T083C 002:950.181   Data:  00 00 00 00 00 00 00 00
T083C 002:950.188 - 0.033ms returns 8 (0x8)
T083C 002:950.380 JLINK_ReadMemEx(0x20000010, 0x8 Bytes, Flags = 0x02000000)
T083C 002:950.392    -- Read from C cache (8 bytes @ 0x20000010)
T083C 002:950.400   Data:  00 00 00 00 00 00 00 00
T083C 002:950.408 - 0.030ms returns 8 (0x8)
T083C 002:950.590 JLINK_ReadMemEx(0x20000018, 0x8 Bytes, Flags = 0x02000000)
T083C 002:950.602    -- Read from C cache (8 bytes @ 0x20000018)
T083C 002:950.611   Data:  00 00 00 00 00 00 00 00
T083C 002:950.618 - 0.030ms returns 8 (0x8)
T083C 007:895.719 JLINK_ReadMemEx(0x200007E8, 0x4 Bytes, Flags = 0x02000000)
T083C 007:895.745   CPU_ReadMem(64 bytes @ 0x200007C0)
T083C 007:896.773    -- Updating C cache (64 bytes @ 0x200007C0)
T083C 007:896.819    -- Read from C cache (4 bytes @ 0x200007E8)
T083C 007:896.855   Data:  00 00 00 00
T083C 007:896.862 - 1.144ms returns 4 (0x4)
T083C 007:896.873 JLINK_ReadMemEx(0x200007EC, 0x4 Bytes, Flags = 0x02000000)
T083C 007:896.880    -- Read from C cache (4 bytes @ 0x200007EC)
T083C 007:896.886   Data:  00 00 00 00
T083C 007:896.892 - 0.021ms returns 4 (0x4)
T083C 007:896.899 JLINK_ReadMemEx(0x200007F0, 0x4 Bytes, Flags = 0x02000000)
T083C 007:896.904    -- Read from C cache (4 bytes @ 0x200007F0)
T083C 007:896.956   Data:  00 00 00 00
T083C 007:896.962 - 0.066ms returns 4 (0x4)
T083C 007:896.970 JLINK_ReadMemEx(0x200007F4, 0x4 Bytes, Flags = 0x02000000)
T083C 007:896.977    -- Read from C cache (4 bytes @ 0x200007F4)
T083C 007:896.983   Data:  00 00 00 00
T083C 007:896.989 - 0.021ms returns 4 (0x4)
T083C 007:897.000 JLINK_ReadMemEx(0x200007E8, 0x4 Bytes, Flags = 0x02000000)
T083C 007:897.006    -- Read from C cache (4 bytes @ 0x200007E8)
T083C 007:897.012   Data:  00 00 00 00
T083C 007:897.018 - 0.020ms returns 4 (0x4)
T083C 007:897.024 JLINK_ReadMemEx(0x200007EC, 0x4 Bytes, Flags = 0x02000000)
T083C 007:897.030    -- Read from C cache (4 bytes @ 0x200007EC)
T083C 007:897.036   Data:  00 00 00 00
T083C 007:897.042 - 0.019ms returns 4 (0x4)
T083C 007:897.048 JLINK_ReadMemEx(0x200007F0, 0x4 Bytes, Flags = 0x02000000)
T083C 007:897.053    -- Read from C cache (4 bytes @ 0x200007F0)
T083C 007:897.059   Data:  00 00 00 00
T083C 007:897.065 - 0.019ms returns 4 (0x4)
T083C 007:897.071 JLINK_ReadMemEx(0x200007F4, 0x4 Bytes, Flags = 0x02000000)
T083C 007:897.076    -- Read from C cache (4 bytes @ 0x200007F4)
T083C 007:897.082   Data:  00 00 00 00
T083C 007:897.088 - 0.019ms returns 4 (0x4)
T083C 007:901.187 JLINK_ReadMemEx(0x200007E8, 0x4 Bytes, Flags = 0x02000000)
T083C 007:901.199    -- Read from C cache (4 bytes @ 0x200007E8)
T083C 007:901.206   Data:  00 00 00 00
T083C 007:901.212 - 0.027ms returns 4 (0x4)
T083C 007:901.219 JLINK_ReadMemEx(0x200007EC, 0x4 Bytes, Flags = 0x02000000)
T083C 007:901.225    -- Read from C cache (4 bytes @ 0x200007EC)
T083C 007:901.231   Data:  00 00 00 00
T083C 007:901.237 - 0.020ms returns 4 (0x4)
T083C 007:901.243 JLINK_ReadMemEx(0x200007F0, 0x4 Bytes, Flags = 0x02000000)
T083C 007:901.248    -- Read from C cache (4 bytes @ 0x200007F0)
T083C 007:901.255   Data:  00 00 00 00
T083C 007:901.261 - 0.019ms returns 4 (0x4)
T083C 007:901.267 JLINK_ReadMemEx(0x200007F4, 0x4 Bytes, Flags = 0x02000000)
T083C 007:901.272    -- Read from C cache (4 bytes @ 0x200007F4)
T083C 007:901.278   Data:  00 00 00 00
T083C 007:901.284 - 0.019ms returns 4 (0x4)
T083C 009:009.815 JLINK_HasError()
T083C 009:009.839 JLINK_SetResetType(JLINKARM_CM3_RESET_TYPE_NORMAL)
T083C 009:009.844 - 0.007ms returns JLINKARM_CM3_RESET_TYPE_NORMAL
T083C 009:009.850 JLINK_Reset()
T083C 009:009.866   CPU_WriteMem(4 bytes @ 0xE000EDF0)
T083C 009:010.273   CPU_WriteMem(4 bytes @ 0xE000EDFC)
T083C 009:010.802   Reset: Halt core after reset via DEMCR.VC_CORERESET.
T083C 009:010.816   Reset: Reset device via AIRCR.SYSRESETREQ.
T083C 009:010.823   CPU_WriteMem(4 bytes @ 0xE000ED0C)
T083C 009:061.433   CPU_ReadMem(4 bytes @ 0xE000EDF0)
T083C 009:061.952   CPU_ReadMem(4 bytes @ 0xE000EDF0)
T083C 009:062.419   CPU_WriteMem(4 bytes @ 0xE000EDF0)
T083C 009:062.889   CPU_WriteMem(4 bytes @ 0xE000EDFC)
T083C 009:068.497   CPU_ReadMem(4 bytes @ 0xE000EDF0)
T083C 009:071.674   CPU_WriteMem(4 bytes @ 0xE000EDFC)
T083C 009:072.087   CPU_WriteMem(4 bytes @ 0xE0001028)
T083C 009:072.444   CPU_WriteMem(4 bytes @ 0xE0001038)
T083C 009:072.830   CPU_WriteMem(4 bytes @ 0xE0001048)
T083C 009:073.190   CPU_WriteMem(4 bytes @ 0xE0001058)
T083C 009:073.582   CPU_WriteMem(4 bytes @ 0xE0002000)
T083C 009:073.902   CPU_ReadMem(4 bytes @ 0xE000EDFC)
T083C 009:074.279   CPU_ReadMem(4 bytes @ 0xE0001000)
T083C 009:074.664 - 64.819ms
T083C 009:074.743 JLINK_HasError()
T083C 009:074.750 JLINK_ReadReg(R15 (PC))
T083C 009:074.760 - 0.012ms returns 0x080001A0
T083C 009:074.765 JLINK_ReadReg(XPSR)
T083C 009:074.770 - 0.007ms returns 0x01000000
T083C 009:074.822 JLINK_HasError()
T083C 009:074.828 JLINK_ReadReg(R0)
T083C 009:074.834 - 0.007ms returns 0x00000000
T083C 009:074.839 JLINK_ReadReg(R1)
T083C 009:074.843 - 0.006ms returns 0x00000000
T083C 009:074.849 JLINK_ReadReg(R2)
T083C 009:074.853 - 0.006ms returns 0x00000000
T083C 009:074.859 JLINK_ReadReg(R3)
T083C 009:074.863 - 0.006ms returns 0x00000000
T083C 009:074.869 JLINK_ReadReg(R4)
T083C 009:074.873 - 0.006ms returns 0x00000000
T083C 009:074.879 JLINK_HasError()
T083C 009:074.894 JLINK_ReadMemU32(0xE0001004, 0x1 Items)
T083C 009:074.903   Data:  00 00 00 00
T083C 009:074.910   Debug reg: DWT_CYCCNT
T083C 009:074.916 - 0.024ms returns 1 (0x1)
T083C 009:076.396 JLINK_ReadMemEx(0x080001A0, 0x3C Bytes, Flags = 0x02000000)
T083C 009:076.422   CPU_ReadMem(128 bytes @ 0x08000180)
T083C 009:077.862    -- Updating C cache (128 bytes @ 0x08000180)
T083C 009:077.921    -- Read from C cache (60 bytes @ 0x080001A0)
T083C 009:077.928   Data:  06 48 80 47 06 48 00 47 FE E7 FE E7 FE E7 FE E7 ...
T083C 009:077.934 - 1.541ms returns 60 (0x3C)
T083C 009:077.942 JLINK_ReadMemEx(0x080001A0, 0x2 Bytes, Flags = 0x02000000)
T083C 009:077.948    -- Read from C cache (2 bytes @ 0x080001A0)
T083C 009:077.954   Data:  06 48
T083C 009:077.960 - 0.020ms returns 2 (0x2)
T083C 009:077.967 JLINK_ReadMemEx(0x080001A2, 0x2 Bytes, Flags = 0x02000000)
T083C 009:077.972    -- Read from C cache (2 bytes @ 0x080001A2)
T083C 009:077.978   Data:  80 47
T083C 009:077.984 - 0.019ms returns 2 (0x2)
T083C 009:077.997 JLINK_ReadMemEx(0x080001A2, 0x2 Bytes, Flags = 0x02000000)
T083C 009:078.002    -- Read from C cache (2 bytes @ 0x080001A2)
T083C 009:078.008   Data:  80 47
T083C 009:078.014 - 0.019ms returns 2 (0x2)
T083C 009:078.020 JLINK_ReadMemEx(0x080001A4, 0x3C Bytes, Flags = 0x02000000)
T083C 009:078.025    -- Read from C cache (60 bytes @ 0x080001A4)
T083C 009:078.031   Data:  06 48 00 47 FE E7 FE E7 FE E7 FE E7 FE E7 FE E7 ...
T083C 009:078.037 - 0.019ms returns 60 (0x3C)
T083C 009:078.043 JLINK_ReadMemEx(0x080001A4, 0x2 Bytes, Flags = 0x02000000)
T083C 009:078.047    -- Read from C cache (2 bytes @ 0x080001A4)
T083C 009:078.054   Data:  06 48
T083C 009:078.060 - 0.019ms returns 2 (0x2)
T083C 009:146.325 JLINK_HasError()
T083C 009:146.347 JLINK_ReadReg(R0)
T083C 009:146.356 - 0.010ms returns 0x00000000
T083C 009:146.361 JLINK_ReadReg(R1)
T083C 009:146.366 - 0.007ms returns 0x00000000
T083C 009:146.372 JLINK_ReadReg(R2)
T083C 009:146.377 - 0.006ms returns 0x00000000
T083C 009:146.382 JLINK_ReadReg(R3)
T083C 009:146.386 - 0.006ms returns 0x00000000
T083C 009:146.392 JLINK_ReadReg(R4)
T083C 009:146.396 - 0.006ms returns 0x00000000
T083C 009:146.402 JLINK_ReadReg(R5)
T083C 009:146.406 - 0.006ms returns 0x00000000
T083C 009:146.411 JLINK_ReadReg(R6)
T083C 009:146.416 - 0.006ms returns 0x00000000
T083C 009:146.421 JLINK_ReadReg(R7)
T083C 009:146.426 - 0.006ms returns 0x00000000
T083C 009:146.431 JLINK_ReadReg(R8)
T083C 009:146.435 - 0.006ms returns 0x00000000
T083C 009:146.441 JLINK_ReadReg(R9)
T083C 009:146.445 - 0.006ms returns 0x00000000
T083C 009:146.451 JLINK_ReadReg(R10)
T083C 009:146.455 - 0.006ms returns 0x00000000
T083C 009:146.460 JLINK_ReadReg(R11)
T083C 009:146.465 - 0.006ms returns 0x00000000
T083C 009:146.470 JLINK_ReadReg(R12)
T083C 009:146.475 - 0.006ms returns 0x00000000
T083C 009:146.480 JLINK_ReadReg(R13 (SP))
T083C 009:146.485 - 0.006ms returns 0x20000BF8
T083C 009:146.490 JLINK_ReadReg(R14)
T083C 009:146.494 - 0.006ms returns 0xFFFFFFFF
T083C 009:146.500 JLINK_ReadReg(R15 (PC))
T083C 009:146.504 - 0.006ms returns 0x080001A0
T083C 009:146.510 JLINK_ReadReg(XPSR)
T083C 009:146.514 - 0.006ms returns 0x01000000
T083C 009:146.520 JLINK_ReadReg(MSP)
T083C 009:146.524 - 0.006ms returns 0x20000BF8
T083C 009:146.529 JLINK_ReadReg(PSP)
T083C 009:146.534 - 0.006ms returns 0x00000000
T083C 009:146.539 JLINK_ReadReg(CFBP)
T083C 009:146.544 - 0.006ms returns 0x00000000
T083C 009:146.549 JLINK_ReadReg(FPSCR)
T083C 009:150.863 - 4.352ms returns 0x00000000
T083C 009:150.930 JLINK_ReadReg(FPS0)
T083C 009:150.972 - 0.045ms returns 0x00000000
T083C 009:150.978 JLINK_ReadReg(FPS1)
T083C 009:150.983 - 0.006ms returns 0x00000000
T083C 009:150.988 JLINK_ReadReg(FPS2)
T083C 009:150.993 - 0.006ms returns 0x00000000
T083C 009:150.998 JLINK_ReadReg(FPS3)
T083C 009:151.002 - 0.006ms returns 0x00000000
T083C 009:151.008 JLINK_ReadReg(FPS4)
T083C 009:151.012 - 0.006ms returns 0x00000000
T083C 009:151.018 JLINK_ReadReg(FPS5)
T083C 009:151.025 - 0.011ms returns 0x00000000
T083C 009:151.032 JLINK_ReadReg(FPS6)
T083C 009:151.037 - 0.006ms returns 0x00000000
T083C 009:151.042 JLINK_ReadReg(FPS7)
T083C 009:151.047 - 0.006ms returns 0x00000000
T083C 009:151.052 JLINK_ReadReg(FPS8)
T083C 009:151.056 - 0.006ms returns 0x00000000
T083C 009:151.062 JLINK_ReadReg(FPS9)
T083C 009:151.066 - 0.006ms returns 0x00000000
T083C 009:151.072 JLINK_ReadReg(FPS10)
T083C 009:151.076 - 0.006ms returns 0x00000000
T083C 009:151.081 JLINK_ReadReg(FPS11)
T083C 009:151.086 - 0.006ms returns 0x00000000
T083C 009:151.091 JLINK_ReadReg(FPS12)
T083C 009:151.096 - 0.006ms returns 0x00000000
T083C 009:151.101 JLINK_ReadReg(FPS13)
T083C 009:151.106 - 0.006ms returns 0x00000000
T083C 009:151.111 JLINK_ReadReg(FPS14)
T083C 009:151.115 - 0.008ms returns 0x00000000
T083C 009:151.122 JLINK_ReadReg(FPS15)
T083C 009:151.127 - 0.006ms returns 0x00000000
T083C 009:151.132 JLINK_ReadReg(FPS16)
T083C 009:151.136 - 0.006ms returns 0x00000000
T083C 009:151.142 JLINK_ReadReg(FPS17)
T083C 009:151.146 - 0.006ms returns 0x00000000
T083C 009:151.152 JLINK_ReadReg(FPS18)
T083C 009:151.156 - 0.006ms returns 0x00000000
T083C 009:151.161 JLINK_ReadReg(FPS19)
T083C 009:151.166 - 0.006ms returns 0x00000000
T083C 009:151.171 JLINK_ReadReg(FPS20)
T083C 009:151.176 - 0.006ms returns 0x00000000
T083C 009:151.181 JLINK_ReadReg(FPS21)
T083C 009:151.186 - 0.006ms returns 0x00000000
T083C 009:151.191 JLINK_ReadReg(FPS22)
T083C 009:151.195 - 0.006ms returns 0x00000000
T083C 009:151.201 JLINK_ReadReg(FPS23)
T083C 009:151.205 - 0.006ms returns 0x00000000
T083C 009:151.211 JLINK_ReadReg(FPS24)
T083C 009:151.215 - 0.006ms returns 0x00000000
T083C 009:151.220 JLINK_ReadReg(FPS25)
T083C 009:151.225 - 0.006ms returns 0x00000000
T083C 009:151.230 JLINK_ReadReg(FPS26)
T083C 009:151.235 - 0.006ms returns 0x00000000
T083C 009:151.240 JLINK_ReadReg(FPS27)
T083C 009:151.244 - 0.006ms returns 0x00000000
T083C 009:151.250 JLINK_ReadReg(FPS28)
T083C 009:151.254 - 0.006ms returns 0x00000000
T083C 009:151.259 JLINK_ReadReg(FPS29)
T083C 009:151.264 - 0.006ms returns 0x00000000
T083C 009:151.269 JLINK_ReadReg(FPS30)
T083C 009:151.274 - 0.006ms returns 0x00000000
T083C 009:151.279 JLINK_ReadReg(FPS31)
T083C 009:151.284 - 0.006ms returns 0x00000000
T083C 009:151.292 JLINK_ReadMemEx(0x20000004, 0x4 Bytes, Flags = 0x02000000)
T083C 009:151.303   CPU_ReadMem(64 bytes @ 0x20000000)
T083C 009:152.292    -- Updating C cache (64 bytes @ 0x20000000)
T083C 009:152.301    -- Read from C cache (4 bytes @ 0x20000004)
T083C 009:152.308   Data:  00 00 00 00
T083C 009:152.314 - 1.023ms returns 4 (0x4)
T083C 009:152.940 JLINK_ReadMemEx(0x20000008, 0x8 Bytes, Flags = 0x02000000)
T083C 009:152.952    -- Read from C cache (8 bytes @ 0x20000008)
T083C 009:152.959   Data:  00 00 00 00 00 00 00 00
T083C 009:152.965 - 0.026ms returns 8 (0x8)
T083C 009:153.168 JLINK_ReadMemEx(0x20000010, 0x8 Bytes, Flags = 0x02000000)
T083C 009:153.182    -- Read from C cache (8 bytes @ 0x20000010)
T083C 009:153.189   Data:  00 00 00 00 00 00 00 00
T083C 009:153.195 - 0.029ms returns 8 (0x8)
T083C 009:153.369 JLINK_ReadMemEx(0x20000018, 0x8 Bytes, Flags = 0x02000000)
T083C 009:153.380    -- Read from C cache (8 bytes @ 0x20000018)
T083C 009:153.386   Data:  00 00 00 00 00 00 00 00
T083C 009:153.392 - 0.025ms returns 8 (0x8)
T083C 009:153.551 JLINK_ReadMemEx(0x200007E8, 0x4 Bytes, Flags = 0x02000000)
T083C 009:153.563   CPU_ReadMem(64 bytes @ 0x200007C0)
T083C 009:154.590    -- Updating C cache (64 bytes @ 0x200007C0)
T083C 009:154.606    -- Read from C cache (4 bytes @ 0x200007E8)
T083C 009:154.613   Data:  00 00 00 00
T083C 009:154.619 - 1.070ms returns 4 (0x4)
T083C 009:154.633 JLINK_ReadMemEx(0x200007EC, 0x4 Bytes, Flags = 0x02000000)
T083C 009:154.642    -- Read from C cache (4 bytes @ 0x200007EC)
T083C 009:154.648   Data:  00 00 00 00
T083C 009:154.654 - 0.022ms returns 4 (0x4)
T083C 009:154.660 JLINK_ReadMemEx(0x200007F0, 0x4 Bytes, Flags = 0x02000000)
T083C 009:154.666    -- Read from C cache (4 bytes @ 0x200007F0)
T083C 009:154.678   Data:  00 00 00 00
T083C 009:154.684 - 0.025ms returns 4 (0x4)
T083C 009:154.690 JLINK_ReadMemEx(0x200007F4, 0x4 Bytes, Flags = 0x02000000)
T083C 009:154.695    -- Read from C cache (4 bytes @ 0x200007F4)
T083C 009:154.702   Data:  00 00 00 00
T083C 009:154.708 - 0.020ms returns 4 (0x4)
T3D14 009:371.651 JLINK_ReadMemEx(0x080001A0, 0x2 Bytes, Flags = 0x02000000)
T3D14 009:371.684    -- Read from C cache (2 bytes @ 0x080001A0)
T3D14 009:371.692   Data:  06 48
T3D14 009:371.699 - 0.050ms returns 2 (0x2)
T3D14 009:371.706 JLINK_HasError()
T3D14 009:371.714 JLINK_HasError()
T3D14 009:371.720 JLINK_Go()
T3D14 009:371.740   CPU_ReadMem(4 bytes @ 0xE0001000)
T3D14 009:372.261   CPU_WriteMem(4 bytes @ 0xE0002008)
T3D14 009:372.316   CPU_WriteMem(4 bytes @ 0xE000200C)
T3D14 009:372.344   CPU_WriteMem(4 bytes @ 0xE0002010)
T3D14 009:372.351   CPU_WriteMem(4 bytes @ 0xE0002014)
T3D14 009:372.358   CPU_WriteMem(4 bytes @ 0xE0002018)
T3D14 009:372.364   CPU_WriteMem(4 bytes @ 0xE000201C)
T3D14 009:374.201   CPU_WriteMem(4 bytes @ 0xE0001004)
T3D14 009:374.881 - 3.173ms
T3D14 009:475.448 JLINK_HasError()
T3D14 009:475.527 JLINK_IsHalted()
T3D14 009:475.878 - 0.358ms returns FALSE
T3D14 009:576.213 JLINK_HasError()
T3D14 009:576.294 JLINK_IsHalted()
T3D14 009:576.651 - 0.366ms returns FALSE
T3D14 009:677.006 JLINK_HasError()
T3D14 009:677.085 JLINK_IsHalted()
T3D14 009:677.434 - 0.355ms returns FALSE
T3D14 009:777.973 JLINK_HasError()
T3D14 009:778.054 JLINK_IsHalted()
T3D14 009:778.404 - 0.354ms returns FALSE
T3D14 009:879.447 JLINK_HasError()
T3D14 009:879.520 JLINK_IsHalted()
T3D14 009:879.824 - 0.309ms returns FALSE
T3D14 009:980.291 JLINK_HasError()
T3D14 009:980.314 JLINK_HasError()
T3D14 009:980.319 JLINK_ReadMemU32(0xE0001004, 0x1 Items)
T3D14 009:980.334   CPU_ReadMem(4 bytes @ 0xE0001004)
T3D14 009:980.845   Data:  C7 D9 C4 05
T3D14 009:980.892   Debug reg: DWT_CYCCNT
T3D14 009:980.939 - 0.621ms returns 1 (0x1)
T083C 009:980.996 JLINK_ReadMemEx(0x20000004, 0x4 Bytes, Flags = 0x02000000)
T083C 009:981.012   CPU_ReadMem(4 bytes @ 0x20000004)
T083C 009:981.401   Data:  00 00 00 00
T083C 009:981.411 - 0.417ms returns 4 (0x4)
T083C 009:981.438 JLINK_ReadMemEx(0x20000008, 0x8 Bytes, Flags = 0x02000000)
T083C 009:981.447   CPU_ReadMem(8 bytes @ 0x20000008)
T083C 009:981.855   Data:  00 00 00 E0 4D 62 10 40
T083C 009:981.863 - 0.427ms returns 8 (0x8)
T083C 009:982.590 JLINK_ReadMemEx(0x20000010, 0x8 Bytes, Flags = 0x02000000)
T083C 009:982.601   CPU_ReadMem(8 bytes @ 0x20000010)
T083C 009:983.008   Data:  00 00 00 E0 4D 62 10 40
T083C 009:983.017 - 0.429ms returns 8 (0x8)
T083C 009:983.865 JLINK_ReadMemEx(0x20000018, 0x8 Bytes, Flags = 0x02000000)
T083C 009:983.876   CPU_ReadMem(8 bytes @ 0x20000018)
T083C 009:984.288   Data:  00 00 00 E0 4D 62 10 C0
T083C 009:984.296 - 0.433ms returns 8 (0x8)
T083C 009:984.494 JLINK_ReadMemEx(0x200007E8, 0x4 Bytes, Flags = 0x02000000)
T083C 009:984.505   CPU_ReadMem(4 bytes @ 0x200007E8)
T083C 009:984.919   Data:  19 00 00 00
T083C 009:984.951 - 0.458ms returns 4 (0x4)
T083C 009:985.107 JLINK_ReadMemEx(0x200007EC, 0x4 Bytes, Flags = 0x02000000)
T083C 009:985.118   CPU_ReadMem(4 bytes @ 0x200007EC)
T083C 009:985.539   Data:  0A 00 00 00
T083C 009:985.578 - 0.473ms returns 4 (0x4)
T083C 009:985.729 JLINK_ReadMemEx(0x200007F0, 0x4 Bytes, Flags = 0x02000000)
T083C 009:985.739   CPU_ReadMem(4 bytes @ 0x200007F0)
T083C 009:986.217   Data:  81 11 0E 00
T083C 009:986.225 - 0.498ms returns 4 (0x4)
T083C 009:986.394 JLINK_ReadMemEx(0x200007F4, 0x4 Bytes, Flags = 0x02000000)
T083C 009:986.405   CPU_ReadMem(4 bytes @ 0x200007F4)
T083C 009:986.808   Data:  09 00 00 00
T083C 009:986.820 - 0.428ms returns 4 (0x4)
T3D14 009:987.052 JLINK_IsHalted()
T3D14 009:987.376 - 0.330ms returns FALSE
T3D14 010:087.920 JLINK_HasError()
T3D14 010:087.969 JLINK_IsHalted()
T3D14 010:088.335 - 0.380ms returns FALSE
T3D14 010:188.708 JLINK_HasError()
T3D14 010:188.741 JLINK_IsHalted()
T3D14 010:189.082 - 0.354ms returns FALSE
T3D14 010:289.466 JLINK_HasError()
T3D14 010:289.498 JLINK_IsHalted()
T3D14 010:289.840 - 0.353ms returns FALSE
T3D14 010:390.203 JLINK_HasError()
T3D14 010:390.234 JLINK_IsHalted()
T3D14 010:390.563 - 0.334ms returns FALSE
T3D14 010:491.018 JLINK_HasError()
T3D14 010:491.054 JLINK_IsHalted()
T3D14 010:491.394 - 0.352ms returns FALSE
T3D14 010:591.789 JLINK_HasError()
T3D14 010:591.850 JLINK_HasError()
T3D14 010:591.857 JLINK_ReadMemU32(0xE0001004, 0x1 Items)
T3D14 010:591.887   Data:  C7 D9 C4 05
T3D14 010:591.896   Debug reg: DWT_CYCCNT
T3D14 010:591.902 - 0.046ms returns 1 (0x1)
T083C 010:592.132 JLINK_ReadMemEx(0x20000004, 0x4 Bytes, Flags = 0x02000000)
T083C 010:592.159   CPU_ReadMem(4 bytes @ 0x20000004)
T083C 010:592.588   Data:  00 00 00 00
T083C 010:592.599 - 0.469ms returns 4 (0x4)
T083C 010:592.630 JLINK_ReadMemEx(0x20000008, 0x8 Bytes, Flags = 0x02000000)
T083C 010:592.639   CPU_ReadMem(8 bytes @ 0x20000008)
T083C 010:593.056   Data:  00 00 00 E0 4D 62 10 40
T083C 010:593.065 - 0.437ms returns 8 (0x8)
T083C 010:593.328 JLINK_ReadMemEx(0x20000010, 0x8 Bytes, Flags = 0x02000000)
T083C 010:593.340   CPU_ReadMem(8 bytes @ 0x20000010)
T083C 010:593.867   Data:  00 00 00 E0 4D 62 10 40
T083C 010:593.875 - 0.549ms returns 8 (0x8)
T083C 010:594.114 JLINK_ReadMemEx(0x20000018, 0x8 Bytes, Flags = 0x02000000)
T083C 010:594.125   CPU_ReadMem(8 bytes @ 0x20000018)
T083C 010:594.567   Data:  00 00 00 E0 4D 62 10 C0
T083C 010:594.617 - 0.504ms returns 8 (0x8)
T083C 010:594.801 JLINK_ReadMemEx(0x200007E8, 0x4 Bytes, Flags = 0x02000000)
T083C 010:594.812   CPU_ReadMem(4 bytes @ 0x200007E8)
T083C 010:595.230   Data:  14 00 00 00
T083C 010:595.259 - 0.460ms returns 4 (0x4)
T083C 010:595.414 JLINK_ReadMemEx(0x200007EC, 0x4 Bytes, Flags = 0x02000000)
